T7C58 000:032.339   SEGGER J-Link V9.28 Log File
T7C58 000:033.328   DLL Compiled: Mar 18 2026 14:12:19
T7C58 000:033.347   Logging started @ 2026-04-24 11:02
T7C58 000:033.362   Process: C:\Keil_v5\UV4\UV4.exe
T7C58 000:033.703 - 33.377ms 
T7C58 000:033.756 JLINK_SetWarnOutHandler(...)
T7C58 000:033.774 - 0.030ms 
T7C58 000:033.800 JLINK_OpenEx(...)
T7C58 000:043.954   Firmware: J-Link V9 compiled May  7 2021 16:26:12
T7C58 000:046.331   Firmware: J-Link V9 compiled May  7 2021 16:26:12
T7C58 000:047.367   Decompressing FW timestamp took 769 us
T7C58 000:055.851   Hardware: V9.40
T7C58 000:055.873   S/N: 69402107
T7C58 000:055.882   OEM: SEGGER
T7C58 000:055.892   Feature(s): RDI, GDB, FlashDL, FlashBP, JFlash
T7C58 000:058.088   Bootloader: (FW returned invalid version)
T7C58 000:060.059   TELNET listener socket opened on port 19021
T7C58 000:061.109   WEBSRV WEBSRV_Init(): Starting webserver thread(s)
T7C58 000:061.425   WEBSRV Webserver running on local port 19080
T7C58 000:062.286   Looking for J-Link GUI Server exe at: C:\Keil_v5\ARM\Segger\JLinkGUIServer.exe
T7C58 000:062.953   Looking for J-Link GUI Server exe at: C:\Program Files\SEGGER\JLink_V928\JLinkGUIServer.exe
T7C58 000:063.521   Forking J-Link GUI Server: C:\Program Files\SEGGER\JLink_V928\JLinkGUIServer.exe
T7C58 000:452.498   J-Link GUI Server info: "J-Link GUI server V9.28 "
T7C58 000:483.006 - 449.188ms returns "O.K."
T7C58 000:483.066 JLINK_GetEmuCaps()
T7C58 000:483.081 - 0.009ms returns 0xB9FF7BBF
T7C58 000:483.118 JLINK_TIF_GetAvailable(...)
T7C58 000:483.571 - 0.452ms 
T7C58 000:483.587 JLINK_SetErrorOutHandler(...)
T7C58 000:483.594 - 0.006ms 
T7C58 000:483.648 JLINK_ExecCommand("ProjectFile = "D:\ChengKe\Sensor_1\Sensor_Proj_V1.0\MDK-ARM\JLinkSettings.ini"", ...). 
T7C58 000:567.795   Ref file found at: C:\Keil_v5\ARM\Segger\JLinkDevices.ref
T7C58 000:568.262   REF file references invalid XML file: C:\Program Files\SEGGER\JLink_V928\JLinkDevices.xml
T7C58 000:569.861 - 86.216ms returns 0x00
T7C58 000:576.480 JLINK_ExecCommand("Device = STM32U575RITx", ...). 
T7C58 000:578.281   Flash bank @ 0x0C000000: SFL: Parsing sectorization info from ELF file
T7C58 000:578.299     FlashDevice.SectorInfo[0]: .SectorSize = 0x00001000, .SectorStartAddr = 0x00000000
T7C58 000:578.309   FlashBank @0x08000000: Sectorization info from SFL ELF file ignored because sectorization override from DLL / XML file is active.
T7C58 000:578.875   Flash bank @ 0x08000000: SFL: Parsing sectorization info from ELF file
T7C58 000:578.892     FlashDevice.SectorInfo[0]: .SectorSize = 0x00001000, .SectorStartAddr = 0x00000000
T7C58 000:578.901   FlashBank @0x0C000000: Sectorization info from SFL ELF file ignored because sectorization override from DLL / XML file is active.
T7C58 000:579.757   Flash bank @ 0x70000000: SFL: Parsing sectorization info from ELF file
T7C58 000:579.774     FlashDevice.SectorInfo[0]: .SectorSize = 0x00010000, .SectorStartAddr = 0x00000000
T7C58 000:592.963   Flash bank @ 0x90000000: SFL: Parsing sectorization info from ELF file
T7C58 000:592.989     FlashDevice.SectorInfo[0]: .SectorSize = 0x00010000, .SectorStartAddr = 0x00000000
T7C58 000:613.691   Device "STM32U575RI" selected.
T7C58 000:614.809 - 38.326ms returns 0x00
T7C58 000:615.081   ERROR: Unknown command
T7C58 000:615.122 JLINK_GetHardwareVersion()
T7C58 000:615.131 - 0.021ms returns 94000
T7C58 000:615.220 JLINK_GetDLLVersion()
T7C58 000:615.238 - 0.018ms returns 92800
T7C58 000:615.248 JLINK_GetOEMString(...)
T7C58 000:615.257 JLINK_GetFirmwareString(...)
T7C58 000:615.264 - 0.006ms 
T7C58 000:632.998 JLINK_GetDLLVersion()
T7C58 000:633.014 - 0.015ms returns 92800
T7C58 000:633.022 JLINK_GetCompileDateTime()
T7C58 000:633.028 - 0.005ms 
T7C58 000:644.522 JLINK_GetFirmwareString(...)
T7C58 000:644.537 - 0.014ms 
T7C58 000:653.733 JLINK_GetHardwareVersion()
T7C58 000:653.752 - 0.018ms returns 94000
T7C58 000:661.203 JLINK_GetSN()
T7C58 000:661.222 - 0.018ms returns 69402107
T7C58 000:666.665 JLINK_GetOEMString(...)
T7C58 000:676.723 JLINK_TIF_Select(JLINKARM_TIF_SWD)
T7C58 000:678.731 - 2.008ms returns 0x00
T7C58 000:678.753 JLINK_HasError()
T7C58 000:678.789 JLINK_SetSpeed(1000)
T7C58 000:679.063 - 0.278ms 
T7C58 000:679.085 JLINK_GetId()
T7C58 000:684.251   InitTarget() start
T7C58 000:684.283    J-Link Script File: Executing InitTarget()
T7C58 000:691.994   SWD selected. Executing JTAG -> SWD switching sequence.
T7C58 000:702.558   DAP initialized successfully.
T7C58 000:726.588   InitTarget() end - Took 35.6ms
T7C58 000:731.946   Found SW-DP with ID 0x0BE12477
T7C58 000:741.364   DPIDR: 0x0BE12477
T7C58 000:745.605   CoreSight SoC-400 or earlier
T7C58 000:749.353   Scanning AP map to find all available APs
T7C58 000:754.826   AP[1]: Stopped AP scan as end of AP map has been reached
T7C58 000:759.279   AP[0]: AHB-AP (IDR: 0x14770015, ADDR: 0x00000000)
T7C58 000:763.120   Iterating through AP map to find AHB-AP to use
T7C58 000:769.186   AP[0]: Core found
T7C58 000:779.244   AP[0]: AHB-AP ROM base: 0xE00FE000
T7C58 000:784.496   CPUID register: 0x410FD214. Implementer code: 0x41 (ARM)
T7C58 000:792.507   Feature set: Mainline
T7C58 000:800.126   Cache: No cache
T7C58 000:805.476   Found Cortex-M33 r0p4, Little endian.
T7C58 000:806.350   -- Max. mem block: 0x00010E60
T7C58 000:813.448   
  ***** Warning: 
T7C58 000:813.469   Cortex-M (ARMv8-M and later): The connected J-Link (S/N 69402107) uses an old firmware module that does not handle I/D-cache correctly. Proper debugging functionality cannot be guaranteed if cache is enabled
T7C58 000:813.849   CPU_ReadMem(4 bytes @ 0xE000EDF0)
T7C58 000:814.732   CPU_ReadMem(4 bytes @ 0xE0002000)
T7C58 000:820.255   FPUnit: 8 code (BP) slots and 0 literal slots
T7C58 000:820.276   CPU_ReadMem(4 bytes @ 0xE000EDFC)
T7C58 000:821.196   CPU_WriteMem(4 bytes @ 0xE000EDFC)
T7C58 000:822.192   CPU_ReadMem(4 bytes @ 0xE0001000)
T7C58 000:823.192   CPU_ReadMem(4 bytes @ 0xE0001000)
T7C58 000:824.192   CPU_ReadMem(4 bytes @ 0xE0001028)
T7C58 000:825.209   CPU_ReadMem(4 bytes @ 0xE0001038)
T7C58 000:826.195   CPU_ReadMem(4 bytes @ 0xE0001048)
T7C58 000:827.220   CPU_ReadMem(4 bytes @ 0xE0001058)
T7C58 000:828.192   CPU_WriteMem(4 bytes @ 0xE0001000)
T7C58 000:829.206   CPU_ReadMem(4 bytes @ 0xE000ED88)
T7C58 000:830.202   CPU_WriteMem(4 bytes @ 0xE000ED88)
T7C58 000:831.202   CPU_ReadMem(4 bytes @ 0xE000ED88)
T7C58 000:832.245   CPU_WriteMem(4 bytes @ 0xE000ED88)
T7C58 000:833.320   CPU_ReadMem(4 bytes @ 0xE000EFB8)
T7C58 000:838.016   Security extension: not implemented
T7C58 000:842.140   CoreSight components:
T7C58 000:846.257   ROMTbl[0] @ E00FE000
T7C58 000:846.278   CPU_ReadMem(64 bytes @ 0xE00FE000)
T7C58 000:848.333   CPU_ReadMem(32 bytes @ 0xE00FFFE0)
T7C58 000:853.692   [0][0]: E00FF000 CID B105100D PID 000BB4C9 ROM Table
T7C58 000:857.582   ROMTbl[1] @ E00FF000
T7C58 000:857.603   CPU_ReadMem(64 bytes @ 0xE00FF000)
T7C58 000:859.704   CPU_ReadMem(32 bytes @ 0xE000EFE0)
T7C58 000:861.067   CPU_ReadMem(4 bytes @ 0xE000EFBC)
T7C58 000:861.942   CPU_ReadMem(4 bytes @ 0xE000EFCC)
T7C58 000:870.307   [1][0]: E000E000 CID B105900D PID 000BBD21 DEVARCH 47702A04 DEVTYPE 00 Cortex-M33
T7C58 000:870.329   CPU_ReadMem(32 bytes @ 0xE0001FE0)
T7C58 000:871.729   CPU_ReadMem(4 bytes @ 0xE0001FBC)
T7C58 000:872.725   CPU_ReadMem(4 bytes @ 0xE0001FCC)
T7C58 000:879.774   [1][1]: E0001000 CID B105900D PID 000BBD21 DEVARCH 47701A02 DEVTYPE 00 DWT
T7C58 000:879.795   CPU_ReadMem(32 bytes @ 0xE0002FE0)
T7C58 000:881.196   CPU_ReadMem(4 bytes @ 0xE0002FBC)
T7C58 000:882.233   CPU_ReadMem(4 bytes @ 0xE0002FCC)
T7C58 000:888.850   [1][2]: E0002000 CID B105900D PID 000BBD21 DEVARCH 47701A03 DEVTYPE 00 FPB
T7C58 000:888.872   CPU_ReadMem(32 bytes @ 0xE0000FE0)
T7C58 000:890.320   CPU_ReadMem(4 bytes @ 0xE0000FBC)
T7C58 000:891.208   CPU_ReadMem(4 bytes @ 0xE0000FCC)
T7C58 000:897.271   [1][3]: E0000000 CID B105900D PID 000BBD21 DEVARCH 47701A01 DEVTYPE 43 ITM
T7C58 000:897.293   CPU_ReadMem(32 bytes @ 0xE0041FE0)
T7C58 000:898.728   CPU_ReadMem(4 bytes @ 0xE0041FBC)
T7C58 000:899.707   CPU_ReadMem(4 bytes @ 0xE0041FCC)
T7C58 000:907.681   [1][5]: E0041000 CID B105900D PID 001BBD21 DEVARCH 47724A13 DEVTYPE 13 ETM
T7C58 000:907.702   CPU_ReadMem(32 bytes @ 0xE0042FE0)
T7C58 000:909.084   CPU_ReadMem(4 bytes @ 0xE0042FBC)
T7C58 000:909.942   CPU_ReadMem(4 bytes @ 0xE0042FCC)
T7C58 000:914.775   [1][6]: E0042000 CID B105900D PID 000BBD21 DEVARCH 47701A14 DEVTYPE 14 CSS600-CTI
T7C58 000:914.796   CPU_ReadMem(32 bytes @ 0xE0040FE0)
T7C58 000:916.071   CPU_ReadMem(4 bytes @ 0xE0040FBC)
T7C58 000:916.942   CPU_ReadMem(4 bytes @ 0xE0040FCC)
T7C58 000:921.695   [0][1]: E0040000 CID B105900D PID 000BBD21 DEVARCH 00000000 DEVTYPE 11 TPIU
T7C58 000:921.716   CPU_ReadMem(32 bytes @ 0xE0044FE0)
T7C58 000:927.336   [0][2]: E0044000 CID B105F00D PID 000A0000 ???
T7C58 000:928.073 - 248.986ms returns 0x0BE12477
T7C58 000:928.099 JLINK_GetDLLVersion()
T7C58 000:928.106 - 0.007ms returns 92800
T7C58 000:928.113 JLINK_CORE_GetFound()
T7C58 000:928.120 - 0.006ms returns 0xE0200FF
T7C58 000:928.206 JLINK_GetDebugInfo(0x100 = JLINKARM_ROM_TABLE_ADDR_INDEX)
T7C58 000:928.236   Value=0xE00FE000
T7C58 000:928.247 - 0.041ms returns 0
T7C58 000:939.754 JLINK_GetDebugInfo(0x100 = JLINKARM_ROM_TABLE_ADDR_INDEX)
T7C58 000:939.770   Value=0xE00FE000
T7C58 000:939.779 - 0.025ms returns 0
T7C58 000:939.787 JLINK_GetDebugInfo(0x101 = JLINKARM_DEBUG_INFO_ETM_ADDR_INDEX)
T7C58 000:939.793   Value=0xE0041000
T7C58 000:939.801 - 0.014ms returns 0
T7C58 000:939.815 JLINK_ReadMemEx(0xE0041FD0, 0x20 Bytes, Flags = 0x02000004)
T7C58 000:939.855   CPU_ReadMem(32 bytes @ 0xE0041FD0)
T7C58 000:941.216   Data:  04 00 00 00 00 00 00 00 00 00 00 00 00 00 00 00 ...
T7C58 000:941.236 - 1.420ms returns 32 (0x20)
T7C58 000:941.246 JLINK_ReadMemU32(0xE0041FBC, 0x1 Items)
T7C58 000:941.257   CPU_ReadMem(4 bytes @ 0xE0041FBC)
T7C58 000:942.204   Data:  13 4A 72 47
T7C58 000:942.221 - 0.974ms returns 1 (0x1)
T7C58 000:942.231 JLINK_GetDebugInfo(0x102 = JLINKARM_DEBUG_INFO_MTB_ADDR_INDEX)
T7C58 000:942.238   Value=0x00000000
T7C58 000:942.251 - 0.019ms returns 0
T7C58 000:942.259 JLINK_GetDebugInfo(0x103 = JLINKARM_DEBUG_INFO_TPIU_ADDR_INDEX)
T7C58 000:942.265   Value=0xE0040000
T7C58 000:942.273 - 0.014ms returns 0
T7C58 000:942.281 JLINK_GetDebugInfo(0x104 = JLINKARM_DEBUG_INFO_ITM_ADDR_INDEX)
T7C58 000:942.286   Value=0xE0000000
T7C58 000:942.294 - 0.014ms returns 0
T7C58 000:942.302 JLINK_GetDebugInfo(0x105 = JLINKARM_DEBUG_INFO_DWT_ADDR_INDEX)
T7C58 000:942.308   Value=0xE0001000
T7C58 000:942.316 - 0.014ms returns 0
T7C58 000:942.323 JLINK_GetDebugInfo(0x106 = JLINKARM_DEBUG_INFO_FPB_ADDR_INDEX)
T7C58 000:942.329   Value=0xE0002000
T7C58 000:942.337 - 0.014ms returns 0
T7C58 000:942.344 JLINK_GetDebugInfo(0x107 = JLINKARM_DEBUG_INFO_NVIC_ADDR_INDEX)
T7C58 000:942.350   Value=0xE000E000
T7C58 000:942.358 - 0.014ms returns 0
T7C58 000:942.366 JLINK_GetDebugInfo(0x10C = JLINKARM_DEBUG_INFO_DBG_ADDR_INDEX)
T7C58 000:942.371   Value=0xE000EDF0
T7C58 000:942.380 - 0.014ms returns 0
T7C58 000:942.387 JLINK_GetDebugInfo(0x01 = Unknown)
T7C58 000:942.393   Value=0x00000001
T7C58 000:942.401 - 0.014ms returns 0
T7C58 000:942.409 JLINK_ReadMemU32(0xE000ED00, 0x1 Items)
T7C58 000:942.418   CPU_ReadMem(4 bytes @ 0xE000ED00)
T7C58 000:943.447   Data:  14 D2 0F 41
T7C58 000:943.582   Debug reg: CPUID
T7C58 000:943.598 - 1.189ms returns 1 (0x1)
T7C58 000:943.609 JLINK_GetDebugInfo(0x10F = JLINKARM_DEBUG_INFO_HAS_CORTEX_M_SECURITY_EXT_INDEX)
T7C58 000:943.616   Value=0x00000000
T7C58 000:943.624 - 0.015ms returns 0
T7C58 000:943.632 JLINK_HasError()
T7C58 000:943.640 JLINK_SetResetType(JLINKARM_CM3_RESET_TYPE_NORMAL)
T7C58 000:943.647 - 0.006ms returns JLINKARM_CM3_RESET_TYPE_NORMAL
T7C58 000:943.654 JLINK_Reset()
T7C58 000:943.665   JLINK_GetResetTypeDesc
T7C58 000:943.672   - 0.006ms 
T7C58 000:948.432   Reset type: NORMAL (https://kb.segger.com/J-Link_Reset_Strategies)
T7C58 000:948.454   CPU is running
T7C58 000:948.466   CPU_WriteMem(4 bytes @ 0xE000EDF0)
T7C58 000:949.459   CPU_ReadMem(4 bytes @ 0xE000ED44)
T7C58 000:950.337   CPU is running
T7C58 000:950.353   CPU_WriteMem(4 bytes @ 0xE000EDFC)
T7C58 000:958.304   Reset: Halt core after reset via DEMCR.VC_CORERESET.
T7C58 000:966.459   Reset: Reset device via AIRCR.SYSRESETREQ.
T7C58 000:966.479   CPU is running
T7C58 000:966.489   CPU_WriteMem(4 bytes @ 0xE000ED0C)
T7C58 001:021.824   CPU_ReadMem(4 bytes @ 0xE000EDF0)
T7C58 001:022.699   CPU_ReadMem(4 bytes @ 0xE000EDF0)
T7C58 001:032.855   CPU_WriteMem(4 bytes @ 0xE000EDFC)
T7C58 001:039.383   CPU_ReadMem(4 bytes @ 0xE000EDF0)
T7C58 001:049.735   CPU_ReadMem(4 bytes @ 0xE000EE08)
T7C58 001:050.701   CPU_WriteMem(4 bytes @ 0xE0002000)
T7C58 001:051.702   CPU_ReadMem(4 bytes @ 0xE000EDFC)
T7C58 001:052.552   CPU_ReadMem(4 bytes @ 0xE0001000)
T7C58 001:053.302   CPU_ReadMem(4 bytes @ 0xE000EE08)
T7C58 001:054.183 - 110.527ms 
T7C58 001:054.207 JLINK_Halt()
T7C58 001:054.214 - 0.007ms returns 0x00
T7C58 001:054.223 JLINK_ReadMemU32(0xE000EDF0, 0x1 Items)
T7C58 001:054.235   CPU_ReadMem(4 bytes @ 0xE000EDF0)
T7C58 001:055.051   Data:  03 00 03 00
T7C58 001:055.070   Debug reg: DHCSR
T7C58 001:055.079 - 0.856ms returns 1 (0x1)
T7C58 001:055.099 JLINK_WriteU32(0xE000EDF0, 0xA05F0003)
T7C58 001:055.106   Debug reg: DHCSR
T7C58 001:055.430   CPU_WriteMem(4 bytes @ 0xE000EDF0)
T7C58 001:056.302 - 1.203ms returns 0 (0x00000000)
T7C58 001:056.323 JLINK_WriteU32(0xE000EDFC, 0x01000000)
T7C58 001:056.330   Debug reg: DEMCR
T7C58 001:056.345   CPU_WriteMem(4 bytes @ 0xE000EDFC)
T7C58 001:057.177 - 0.853ms returns 0 (0x00000000)
T7C58 001:073.196 JLINK_GetHWStatus(...)
T7C58 001:073.692 - 0.495ms returns 0
T7C58 001:085.044 JLINK_GetNumBPUnits(Type = 0xFFFFFF00)
T7C58 001:085.060 - 0.016ms returns 0x08
T7C58 001:085.068 JLINK_GetNumBPUnits(Type = 0xF0)
T7C58 001:085.074 - 0.006ms returns 0x2000
T7C58 001:085.081 JLINK_GetNumWPUnits()
T7C58 001:085.087 - 0.005ms returns 4
T7C58 001:096.405 JLINK_GetSpeed()
T7C58 001:096.420 - 0.015ms returns 1000
T7C58 001:105.202 JLINK_ReadMemU32(0xE000E004, 0x1 Items)
T7C58 001:105.252   CPU_ReadMem(4 bytes @ 0xE000E004)
T7C58 001:106.199   Data:  03 00 00 00
T7C58 001:106.218 - 1.017ms returns 1 (0x1)
T7C58 001:106.229 JLINK_ReadMemU32(0xE000E004, 0x1 Items)
T7C58 001:106.239   CPU_ReadMem(4 bytes @ 0xE000E004)
T7C58 001:107.194   Data:  03 00 00 00
T7C58 001:107.210 - 0.981ms returns 1 (0x1)
T7C58 001:107.226 JLINK_WriteMemEx(0xE0001000, 0x0000001C Bytes, Flags = 0x02000004)
T7C58 001:107.233   Data:  01 00 00 00 00 00 00 00 00 00 00 00 00 00 00 00 ...
T7C58 001:107.248   CPU_WriteMem(28 bytes @ 0xE0001000)
T7C58 001:108.720 - 1.494ms returns 0x1C
T7C58 001:108.744 JLINK_Halt()
T7C58 001:108.752 - 0.007ms returns 0x00
T7C58 001:108.830 JLINK_IsHalted()
T7C58 001:108.843 - 0.013ms returns TRUE
T7C58 001:125.406 JLINK_WriteMem(0x20000000, 0x654 Bytes, ...)
T7C58 001:125.422   Data:  00 BE 0A E0 0D 78 2D 06 68 40 08 24 40 00 00 D3 ...
T7C58 001:125.753   CPU_WriteMem(1620 bytes @ 0x20000000)
T7C58 001:154.700 - 29.293ms returns 0x654
T7C58 001:154.776 JLINK_HasError()
T7C58 001:154.808 JLINK_WriteReg(R0, 0x08000000)
T7C58 001:154.823   CPU_ReadMem(4 bytes @ 0xE000EE08)
T7C58 001:155.676 - 0.885ms returns 0
T7C58 001:155.693 JLINK_WriteReg(R1, 0x00F42400)
T7C58 001:155.701 - 0.008ms returns 0
T7C58 001:155.709 JLINK_WriteReg(R2, 0x00000001)
T7C58 001:155.716 - 0.006ms returns 0
T7C58 001:155.723 JLINK_WriteReg(R3, 0x00000000)
T7C58 001:155.729 - 0.006ms returns 0
T7C58 001:155.737 JLINK_WriteReg(R4, 0x00000000)
T7C58 001:155.743 - 0.006ms returns 0
T7C58 001:155.751 JLINK_WriteReg(R5, 0x00000000)
T7C58 001:155.757 - 0.006ms returns 0
T7C58 001:155.768 JLINK_WriteReg(R6, 0x00000000)
T7C58 001:155.775 - 0.006ms returns 0
T7C58 001:155.782 JLINK_WriteReg(R7, 0x00000000)
T7C58 001:155.789 - 0.006ms returns 0
T7C58 001:155.796 JLINK_WriteReg(R8, 0x00000000)
T7C58 001:155.802 - 0.006ms returns 0
T7C58 001:155.810 JLINK_WriteReg(R9, 0x20000640)
T7C58 001:155.816 - 0.006ms returns 0
T7C58 001:155.824 JLINK_WriteReg(R10, 0x00000000)
T7C58 001:155.897 - 0.073ms returns 0
T7C58 001:155.906 JLINK_WriteReg(R11, 0x00000000)
T7C58 001:155.913 - 0.006ms returns 0
T7C58 001:155.920 JLINK_WriteReg(R12, 0x00000000)
T7C58 001:155.926 - 0.006ms returns 0
T7C58 001:155.934 JLINK_WriteReg(R13 (SP), 0x20008000)
T7C58 001:155.942 - 0.008ms returns 0
T7C58 001:155.949 JLINK_WriteReg(R14, 0x20000001)
T7C58 001:155.956 - 0.006ms returns 0
T7C58 001:155.969 JLINK_WriteReg(R15 (PC), 0x20000080)
T7C58 001:155.976 - 0.013ms returns 0
T7C58 001:155.984 JLINK_WriteReg(XPSR, 0x01000000)
T7C58 001:155.991 - 0.006ms returns 0
T7C58 001:155.998 JLINK_WriteReg(MSP, 0x20008000)
T7C58 001:156.004 - 0.006ms returns 0
T7C58 001:156.012 JLINK_WriteReg(PSP, 0x20008000)
T7C58 001:156.018 - 0.006ms returns 0
T7C58 001:156.026 JLINK_WriteReg(CFBP, 0x00000000)
T7C58 001:156.032 - 0.006ms returns 0
T7C58 001:156.040 JLINK_SetBPEx(Addr = 0x20000000, Type = 0xFFFFFFF2)
T7C58 001:156.048 - 0.008ms returns 0x00000001
T7C58 001:156.056 JLINK_Go()
T7C58 001:156.067   CPU_WriteMem(4 bytes @ 0xE0002000)
T7C58 001:156.949   CPU_ReadMem(4 bytes @ 0xE0001000)
T7C58 001:157.810   CPU_WriteMem(4 bytes @ 0xE0002008)
T7C58 001:157.829   CPU_WriteMem(4 bytes @ 0xE000200C)
T7C58 001:157.839   CPU_WriteMem(4 bytes @ 0xE0002010)
T7C58 001:157.848   CPU_WriteMem(4 bytes @ 0xE0002014)
T7C58 001:157.858   CPU_WriteMem(4 bytes @ 0xE0002018)
T7C58 001:157.867   CPU_WriteMem(4 bytes @ 0xE000201C)
T7C58 001:157.879   CPU_WriteMem(4 bytes @ 0xE0002020)
T7C58 001:157.888   CPU_WriteMem(4 bytes @ 0xE0002024)
T7C58 001:162.192   CPU_WriteMem(4 bytes @ 0xE0001004)
T7C58 001:193.076   Memory map 'after startup completion point' is active
T7C58 001:193.097 - 37.040ms 
T7C58 001:193.113 JLINK_IsHalted()
T7C58 001:202.076 - 8.961ms returns TRUE
T7C58 001:202.100 JLINK_ReadReg(R15 (PC))
T7C58 001:202.111   CPU_ReadMem(4 bytes @ 0xE000EE08)
T7C58 001:202.956 - 0.855ms returns 0x20000000
T7C58 001:203.094 JLINK_ClrBPEx(BPHandle = 0x00000001)
T7C58 001:203.113 - 0.019ms returns 0x00
T7C58 001:203.124 JLINK_ReadReg(R0)
T7C58 001:203.135 - 0.010ms returns 0x00000000
T7C58 001:205.551 JLINK_HasError()
T7C58 001:205.593 JLINK_WriteReg(R0, 0x08000000)
T7C58 001:205.616 - 0.026ms returns 0
T7C58 001:205.634 JLINK_WriteReg(R1, 0x00002000)
T7C58 001:205.649 - 0.015ms returns 0
T7C58 001:205.667 JLINK_WriteReg(R2, 0x000000FF)
T7C58 001:205.681 - 0.014ms returns 0
T7C58 001:205.698 JLINK_WriteReg(R3, 0x00000000)
T7C58 001:205.713 - 0.014ms returns 0
T7C58 001:205.729 JLINK_WriteReg(R4, 0x00000000)
T7C58 001:205.744 - 0.014ms returns 0
T7C58 001:205.760 JLINK_WriteReg(R5, 0x00000000)
T7C58 001:205.775 - 0.014ms returns 0
T7C58 001:205.791 JLINK_WriteReg(R6, 0x00000000)
T7C58 001:205.806 - 0.014ms returns 0
T7C58 001:205.823 JLINK_WriteReg(R7, 0x00000000)
T7C58 001:205.837 - 0.014ms returns 0
T7C58 001:205.854 JLINK_WriteReg(R8, 0x00000000)
T7C58 001:205.875 - 0.021ms returns 0
T7C58 001:205.893 JLINK_WriteReg(R9, 0x20000640)
T7C58 001:205.907 - 0.014ms returns 0
T7C58 001:205.924 JLINK_WriteReg(R10, 0x00000000)
T7C58 001:205.939 - 0.015ms returns 0
T7C58 001:205.960 JLINK_WriteReg(R11, 0x00000000)
T7C58 001:205.974 - 0.014ms returns 0
T7C58 001:205.991 JLINK_WriteReg(R12, 0x00000000)
T7C58 001:206.006 - 0.014ms returns 0
T7C58 001:206.023 JLINK_WriteReg(R13 (SP), 0x20008000)
T7C58 001:206.040 - 0.017ms returns 0
T7C58 001:206.057 JLINK_WriteReg(R14, 0x20000001)
T7C58 001:206.071 - 0.014ms returns 0
T7C58 001:206.088 JLINK_WriteReg(R15 (PC), 0x20000020)
T7C58 001:206.102 - 0.014ms returns 0
T7C58 001:206.120 JLINK_WriteReg(XPSR, 0x01000000)
T7C58 001:206.134 - 0.015ms returns 0
T7C58 001:206.151 JLINK_WriteReg(MSP, 0x20008000)
T7C58 001:206.166 - 0.014ms returns 0
T7C58 001:206.183 JLINK_WriteReg(PSP, 0x20008000)
T7C58 001:206.197 - 0.014ms returns 0
T7C58 001:206.214 JLINK_WriteReg(CFBP, 0x00000000)
T7C58 001:206.229 - 0.014ms returns 0
T7C58 001:206.247 JLINK_SetBPEx(Addr = 0x20000000, Type = 0xFFFFFFF2)
T7C58 001:206.264 - 0.017ms returns 0x00000002
T7C58 001:206.380 JLINK_Go()
T7C58 001:206.404   CPU_WriteMem(4 bytes @ 0xE0002000)
T7C58 001:207.316   CPU_ReadMem(4 bytes @ 0xE0001000)
T7C58 001:215.680 - 9.299ms 
T7C58 001:215.702 JLINK_IsHalted()
T7C58 001:224.733 - 9.030ms returns TRUE
T7C58 001:224.755 JLINK_ReadReg(R15 (PC))
T7C58 001:224.766   CPU_ReadMem(4 bytes @ 0xE000EE08)
T7C58 001:225.704 - 0.949ms returns 0x20000000
T7C58 001:225.724 JLINK_ClrBPEx(BPHandle = 0x00000002)
T7C58 001:225.732 - 0.008ms returns 0x00
T7C58 001:225.742 JLINK_ReadReg(R0)
T7C58 001:225.750 - 0.008ms returns 0x00000001
T7C58 001:225.759 JLINK_HasError()
T7C58 001:225.769 JLINK_WriteReg(R0, 0x08000000)
T7C58 001:225.777 - 0.008ms returns 0
T7C58 001:225.785 JLINK_WriteReg(R1, 0x00002000)
T7C58 001:225.792 - 0.007ms returns 0
T7C58 001:225.800 JLINK_WriteReg(R2, 0x000000FF)
T7C58 001:225.807 - 0.007ms returns 0
T7C58 001:225.816 JLINK_WriteReg(R3, 0x00000000)
T7C58 001:225.823 - 0.007ms returns 0
T7C58 001:225.831 JLINK_WriteReg(R4, 0x00000000)
T7C58 001:225.838 - 0.007ms returns 0
T7C58 001:225.846 JLINK_WriteReg(R5, 0x00000000)
T7C58 001:225.853 - 0.007ms returns 0
T7C58 001:225.861 JLINK_WriteReg(R6, 0x00000000)
T7C58 001:225.868 - 0.007ms returns 0
T7C58 001:225.877 JLINK_WriteReg(R7, 0x00000000)
T7C58 001:225.884 - 0.007ms returns 0
T7C58 001:225.892 JLINK_WriteReg(R8, 0x00000000)
T7C58 001:225.899 - 0.007ms returns 0
T7C58 001:225.907 JLINK_WriteReg(R9, 0x20000640)
T7C58 001:225.914 - 0.007ms returns 0
T7C58 001:225.922 JLINK_WriteReg(R10, 0x00000000)
T7C58 001:225.929 - 0.007ms returns 0
T7C58 001:225.938 JLINK_WriteReg(R11, 0x00000000)
T7C58 001:225.945 - 0.007ms returns 0
T7C58 001:225.953 JLINK_WriteReg(R12, 0x00000000)
T7C58 001:225.960 - 0.007ms returns 0
T7C58 001:225.968 JLINK_WriteReg(R13 (SP), 0x20008000)
T7C58 001:225.976 - 0.008ms returns 0
T7C58 001:225.984 JLINK_WriteReg(R14, 0x20000001)
T7C58 001:225.991 - 0.007ms returns 0
T7C58 001:226.000 JLINK_WriteReg(R15 (PC), 0x20000294)
T7C58 001:226.007 - 0.007ms returns 0
T7C58 001:226.015 JLINK_WriteReg(XPSR, 0x01000000)
T7C58 001:226.022 - 0.007ms returns 0
T7C58 001:226.030 JLINK_WriteReg(MSP, 0x20008000)
T7C58 001:226.038 - 0.007ms returns 0
T7C58 001:226.046 JLINK_WriteReg(PSP, 0x20008000)
T7C58 001:226.053 - 0.007ms returns 0
T7C58 001:226.063 JLINK_WriteReg(CFBP, 0x00000000)
T7C58 001:226.070 - 0.007ms returns 0
T7C58 001:226.079 JLINK_SetBPEx(Addr = 0x20000000, Type = 0xFFFFFFF2)
T7C58 001:226.086 - 0.008ms returns 0x00000003
T7C58 001:226.095 JLINK_Go()
T7C58 001:226.106   CPU_WriteMem(4 bytes @ 0xE0002000)
T7C58 001:226.941   CPU_ReadMem(4 bytes @ 0xE0001000)
T7C58 001:235.686 - 9.590ms 
T7C58 001:235.713 JLINK_IsHalted()
T7C58 001:236.698 - 0.984ms returns FALSE
T7C58 001:236.720 JLINK_HasError()
T7C58 001:301.832 JLINK_IsHalted()
T7C58 001:310.829 - 8.996ms returns TRUE
T7C58 001:310.849 JLINK_ReadReg(R15 (PC))
T7C58 001:310.860   CPU_ReadMem(4 bytes @ 0xE000EE08)
T7C58 001:311.684 - 0.834ms returns 0x20000000
T7C58 001:311.701 JLINK_ClrBPEx(BPHandle = 0x00000003)
T7C58 001:311.709 - 0.007ms returns 0x00
T7C58 001:311.717 JLINK_ReadReg(R0)
T7C58 001:311.724 - 0.007ms returns 0x00000000
T7C58 001:313.483 JLINK_HasError()
T7C58 001:313.504 JLINK_WriteReg(R0, 0x08002000)
T7C58 001:313.516 - 0.012ms returns 0
T7C58 001:313.525 JLINK_WriteReg(R1, 0x00002000)
T7C58 001:313.533 - 0.007ms returns 0
T7C58 001:313.541 JLINK_WriteReg(R2, 0x000000FF)
T7C58 001:313.549 - 0.007ms returns 0
T7C58 001:313.557 JLINK_WriteReg(R3, 0x00000000)
T7C58 001:313.564 - 0.007ms returns 0
T7C58 001:313.572 JLINK_WriteReg(R4, 0x00000000)
T7C58 001:313.579 - 0.006ms returns 0
T7C58 001:313.587 JLINK_WriteReg(R5, 0x00000000)
T7C58 001:313.594 - 0.007ms returns 0
T7C58 001:313.602 JLINK_WriteReg(R6, 0x00000000)
T7C58 001:313.609 - 0.007ms returns 0
T7C58 001:313.617 JLINK_WriteReg(R7, 0x00000000)
T7C58 001:313.624 - 0.006ms returns 0
T7C58 001:313.632 JLINK_WriteReg(R8, 0x00000000)
T7C58 001:313.639 - 0.007ms returns 0
T7C58 001:313.653 JLINK_WriteReg(R9, 0x20000640)
T7C58 001:313.665 - 0.012ms returns 0
T7C58 001:313.673 JLINK_WriteReg(R10, 0x00000000)
T7C58 001:313.680 - 0.007ms returns 0
T7C58 001:313.689 JLINK_WriteReg(R11, 0x00000000)
T7C58 001:313.696 - 0.007ms returns 0
T7C58 001:313.704 JLINK_WriteReg(R12, 0x00000000)
T7C58 001:313.711 - 0.006ms returns 0
T7C58 001:313.719 JLINK_WriteReg(R13 (SP), 0x20008000)
T7C58 001:313.727 - 0.008ms returns 0
T7C58 001:313.735 JLINK_WriteReg(R14, 0x20000001)
T7C58 001:313.742 - 0.007ms returns 0
T7C58 001:313.751 JLINK_WriteReg(R15 (PC), 0x20000020)
T7C58 001:313.758 - 0.007ms returns 0
T7C58 001:313.766 JLINK_WriteReg(XPSR, 0x01000000)
T7C58 001:313.773 - 0.007ms returns 0
T7C58 001:313.781 JLINK_WriteReg(MSP, 0x20008000)
T7C58 001:313.789 - 0.007ms returns 0
T7C58 001:313.797 JLINK_WriteReg(PSP, 0x20008000)
T7C58 001:313.804 - 0.007ms returns 0
T7C58 001:313.812 JLINK_WriteReg(CFBP, 0x00000000)
T7C58 001:313.819 - 0.007ms returns 0
T7C58 001:313.828 JLINK_SetBPEx(Addr = 0x20000000, Type = 0xFFFFFFF2)
T7C58 001:313.836 - 0.008ms returns 0x00000004
T7C58 001:313.844 JLINK_Go()
T7C58 001:313.856   CPU_WriteMem(4 bytes @ 0xE0002000)
T7C58 001:314.704   CPU_ReadMem(4 bytes @ 0xE0001000)
T7C58 001:323.054 - 9.208ms 
T7C58 001:323.072 JLINK_IsHalted()
T7C58 001:331.952 - 8.878ms returns TRUE
T7C58 001:331.972 JLINK_ReadReg(R15 (PC))
T7C58 001:331.983   CPU_ReadMem(4 bytes @ 0xE000EE08)
T7C58 001:332.821 - 0.848ms returns 0x20000000
T7C58 001:332.839 JLINK_ClrBPEx(BPHandle = 0x00000004)
T7C58 001:332.847 - 0.008ms returns 0x00
T7C58 001:332.855 JLINK_ReadReg(R0)
T7C58 001:332.863 - 0.008ms returns 0x00000001
T7C58 001:332.872 JLINK_HasError()
T7C58 001:332.881 JLINK_WriteReg(R0, 0x08002000)
T7C58 001:332.889 - 0.008ms returns 0
T7C58 001:332.897 JLINK_WriteReg(R1, 0x00002000)
T7C58 001:332.905 - 0.007ms returns 0
T7C58 001:332.913 JLINK_WriteReg(R2, 0x000000FF)
T7C58 001:332.920 - 0.007ms returns 0
T7C58 001:332.928 JLINK_WriteReg(R3, 0x00000000)
T7C58 001:332.935 - 0.007ms returns 0
T7C58 001:332.943 JLINK_WriteReg(R4, 0x00000000)
T7C58 001:332.950 - 0.007ms returns 0
T7C58 001:332.958 JLINK_WriteReg(R5, 0x00000000)
T7C58 001:332.967 - 0.009ms returns 0
T7C58 001:332.975 JLINK_WriteReg(R6, 0x00000000)
T7C58 001:332.982 - 0.007ms returns 0
T7C58 001:332.990 JLINK_WriteReg(R7, 0x00000000)
T7C58 001:332.997 - 0.006ms returns 0
T7C58 001:333.005 JLINK_WriteReg(R8, 0x00000000)
T7C58 001:333.012 - 0.007ms returns 0
T7C58 001:333.020 JLINK_WriteReg(R9, 0x20000640)
T7C58 001:333.027 - 0.007ms returns 0
T7C58 001:333.035 JLINK_WriteReg(R10, 0x00000000)
T7C58 001:333.042 - 0.007ms returns 0
T7C58 001:333.051 JLINK_WriteReg(R11, 0x00000000)
T7C58 001:333.058 - 0.007ms returns 0
T7C58 001:333.066 JLINK_WriteReg(R12, 0x00000000)
T7C58 001:333.073 - 0.007ms returns 0
T7C58 001:333.081 JLINK_WriteReg(R13 (SP), 0x20008000)
T7C58 001:333.088 - 0.007ms returns 0
T7C58 001:333.097 JLINK_WriteReg(R14, 0x20000001)
T7C58 001:333.104 - 0.007ms returns 0
T7C58 001:333.112 JLINK_WriteReg(R15 (PC), 0x20000294)
T7C58 001:333.119 - 0.007ms returns 0
T7C58 001:333.127 JLINK_WriteReg(XPSR, 0x01000000)
T7C58 001:333.134 - 0.007ms returns 0
T7C58 001:333.142 JLINK_WriteReg(MSP, 0x20008000)
T7C58 001:333.149 - 0.007ms returns 0
T7C58 001:333.161 JLINK_WriteReg(PSP, 0x20008000)
T7C58 001:333.169 - 0.007ms returns 0
T7C58 001:333.177 JLINK_WriteReg(CFBP, 0x00000000)
T7C58 001:333.184 - 0.007ms returns 0
T7C58 001:333.193 JLINK_SetBPEx(Addr = 0x20000000, Type = 0xFFFFFFF2)
T7C58 001:333.200 - 0.007ms returns 0x00000005
T7C58 001:333.208 JLINK_Go()
T7C58 001:333.219   CPU_WriteMem(4 bytes @ 0xE0002000)
T7C58 001:334.066   CPU_ReadMem(4 bytes @ 0xE0001000)
T7C58 001:342.178 - 8.969ms 
T7C58 001:342.201 JLINK_IsHalted()
T7C58 001:343.183 - 0.981ms returns FALSE
T7C58 001:343.206 JLINK_HasError()
T7C58 001:345.774 JLINK_IsHalted()
T7C58 001:354.825 - 9.050ms returns TRUE
T7C58 001:354.843 JLINK_ReadReg(R15 (PC))
T7C58 001:354.852   CPU_ReadMem(4 bytes @ 0xE000EE08)
T7C58 001:355.692 - 0.849ms returns 0x20000000
T7C58 001:355.709 JLINK_ClrBPEx(BPHandle = 0x00000005)
T7C58 001:355.716 - 0.007ms returns 0x00
T7C58 001:355.724 JLINK_ReadReg(R0)
T7C58 001:355.732 - 0.007ms returns 0x00000000
T7C58 001:356.951 JLINK_HasError()
T7C58 001:356.972 JLINK_WriteReg(R0, 0x08004000)
T7C58 001:356.984 - 0.011ms returns 0
T7C58 001:356.992 JLINK_WriteReg(R1, 0x00002000)
T7C58 001:357.000 - 0.007ms returns 0
T7C58 001:357.008 JLINK_WriteReg(R2, 0x000000FF)
T7C58 001:357.015 - 0.007ms returns 0
T7C58 001:357.024 JLINK_WriteReg(R3, 0x00000000)
T7C58 001:357.031 - 0.007ms returns 0
T7C58 001:357.039 JLINK_WriteReg(R4, 0x00000000)
T7C58 001:357.046 - 0.007ms returns 0
T7C58 001:357.054 JLINK_WriteReg(R5, 0x00000000)
T7C58 001:357.061 - 0.007ms returns 0
T7C58 001:357.069 JLINK_WriteReg(R6, 0x00000000)
T7C58 001:357.076 - 0.007ms returns 0
T7C58 001:357.084 JLINK_WriteReg(R7, 0x00000000)
T7C58 001:357.091 - 0.007ms returns 0
T7C58 001:357.099 JLINK_WriteReg(R8, 0x00000000)
T7C58 001:357.108 - 0.008ms returns 0
T7C58 001:357.116 JLINK_WriteReg(R9, 0x20000640)
T7C58 001:357.123 - 0.007ms returns 0
T7C58 001:357.131 JLINK_WriteReg(R10, 0x00000000)
T7C58 001:357.138 - 0.007ms returns 0
T7C58 001:357.146 JLINK_WriteReg(R11, 0x00000000)
T7C58 001:357.153 - 0.007ms returns 0
T7C58 001:357.161 JLINK_WriteReg(R12, 0x00000000)
T7C58 001:357.168 - 0.006ms returns 0
T7C58 001:357.177 JLINK_WriteReg(R13 (SP), 0x20008000)
T7C58 001:357.185 - 0.008ms returns 0
T7C58 001:357.193 JLINK_WriteReg(R14, 0x20000001)
T7C58 001:357.200 - 0.007ms returns 0
T7C58 001:357.208 JLINK_WriteReg(R15 (PC), 0x20000020)
T7C58 001:357.215 - 0.007ms returns 0
T7C58 001:357.224 JLINK_WriteReg(XPSR, 0x01000000)
T7C58 001:357.231 - 0.007ms returns 0
T7C58 001:357.239 JLINK_WriteReg(MSP, 0x20008000)
T7C58 001:357.246 - 0.007ms returns 0
T7C58 001:357.254 JLINK_WriteReg(PSP, 0x20008000)
T7C58 001:357.261 - 0.007ms returns 0
T7C58 001:357.269 JLINK_WriteReg(CFBP, 0x00000000)
T7C58 001:357.276 - 0.007ms returns 0
T7C58 001:357.285 JLINK_SetBPEx(Addr = 0x20000000, Type = 0xFFFFFFF2)
T7C58 001:357.293 - 0.008ms returns 0x00000006
T7C58 001:357.301 JLINK_Go()
T7C58 001:357.312   CPU_WriteMem(4 bytes @ 0xE0002000)
T7C58 001:358.192   CPU_ReadMem(4 bytes @ 0xE0001000)
T7C58 001:366.426 - 9.123ms 
T7C58 001:366.444 JLINK_IsHalted()
T7C58 001:375.328 - 8.882ms returns TRUE
T7C58 001:375.354 JLINK_ReadReg(R15 (PC))
T7C58 001:375.365   CPU_ReadMem(4 bytes @ 0xE000EE08)
T7C58 001:376.178 - 0.822ms returns 0x20000000
T7C58 001:376.201 JLINK_ClrBPEx(BPHandle = 0x00000006)
T7C58 001:376.209 - 0.008ms returns 0x00
T7C58 001:376.259 JLINK_ReadReg(R0)
T7C58 001:376.275 - 0.015ms returns 0x00000001
T7C58 001:376.284 JLINK_HasError()
T7C58 001:376.293 JLINK_WriteReg(R0, 0x08004000)
T7C58 001:376.300 - 0.007ms returns 0
T7C58 001:376.308 JLINK_WriteReg(R1, 0x00002000)
T7C58 001:376.314 - 0.006ms returns 0
T7C58 001:376.322 JLINK_WriteReg(R2, 0x000000FF)
T7C58 001:376.328 - 0.006ms returns 0
T7C58 001:376.336 JLINK_WriteReg(R3, 0x00000000)
T7C58 001:376.342 - 0.006ms returns 0
T7C58 001:376.349 JLINK_WriteReg(R4, 0x00000000)
T7C58 001:376.356 - 0.006ms returns 0
T7C58 001:376.363 JLINK_WriteReg(R5, 0x00000000)
T7C58 001:376.370 - 0.006ms returns 0
T7C58 001:376.377 JLINK_WriteReg(R6, 0x00000000)
T7C58 001:376.383 - 0.006ms returns 0
T7C58 001:376.391 JLINK_WriteReg(R7, 0x00000000)
T7C58 001:376.397 - 0.006ms returns 0
T7C58 001:376.405 JLINK_WriteReg(R8, 0x00000000)
T7C58 001:376.411 - 0.006ms returns 0
T7C58 001:376.418 JLINK_WriteReg(R9, 0x20000640)
T7C58 001:376.425 - 0.006ms returns 0
T7C58 001:376.432 JLINK_WriteReg(R10, 0x00000000)
T7C58 001:376.439 - 0.006ms returns 0
T7C58 001:376.446 JLINK_WriteReg(R11, 0x00000000)
T7C58 001:376.452 - 0.006ms returns 0
T7C58 001:376.460 JLINK_WriteReg(R12, 0x00000000)
T7C58 001:376.466 - 0.006ms returns 0
T7C58 001:376.474 JLINK_WriteReg(R13 (SP), 0x20008000)
T7C58 001:376.481 - 0.007ms returns 0
T7C58 001:376.488 JLINK_WriteReg(R14, 0x20000001)
T7C58 001:376.506 - 0.017ms returns 0
T7C58 001:376.514 JLINK_WriteReg(R15 (PC), 0x20000294)
T7C58 001:376.521 - 0.006ms returns 0
T7C58 001:376.528 JLINK_WriteReg(XPSR, 0x01000000)
T7C58 001:376.534 - 0.006ms returns 0
T7C58 001:376.542 JLINK_WriteReg(MSP, 0x20008000)
T7C58 001:376.548 - 0.006ms returns 0
T7C58 001:376.556 JLINK_WriteReg(PSP, 0x20008000)
T7C58 001:376.562 - 0.006ms returns 0
T7C58 001:376.569 JLINK_WriteReg(CFBP, 0x00000000)
T7C58 001:376.576 - 0.006ms returns 0
T7C58 001:376.584 JLINK_SetBPEx(Addr = 0x20000000, Type = 0xFFFFFFF2)
T7C58 001:376.590 - 0.007ms returns 0x00000007
T7C58 001:376.598 JLINK_Go()
T7C58 001:376.607   CPU_WriteMem(4 bytes @ 0xE0002000)
T7C58 001:377.435   CPU_ReadMem(4 bytes @ 0xE0001000)
T7C58 001:385.954 - 9.355ms 
T7C58 001:385.971 JLINK_IsHalted()
T7C58 001:386.855 - 0.883ms returns FALSE
T7C58 001:386.874 JLINK_HasError()
T7C58 001:389.586 JLINK_IsHalted()
T7C58 001:398.723 - 9.137ms returns TRUE
T7C58 001:398.740 JLINK_ReadReg(R15 (PC))
T7C58 001:398.749   CPU_ReadMem(4 bytes @ 0xE000EE08)
T7C58 001:399.704 - 0.963ms returns 0x20000000
T7C58 001:399.720 JLINK_ClrBPEx(BPHandle = 0x00000007)
T7C58 001:399.727 - 0.007ms returns 0x00
T7C58 001:399.735 JLINK_ReadReg(R0)
T7C58 001:399.743 - 0.007ms returns 0x00000000
T7C58 001:400.482 JLINK_HasError()
T7C58 001:400.499 JLINK_WriteReg(R0, 0x08006000)
T7C58 001:400.509 - 0.009ms returns 0
T7C58 001:400.517 JLINK_WriteReg(R1, 0x00002000)
T7C58 001:400.524 - 0.006ms returns 0
T7C58 001:400.531 JLINK_WriteReg(R2, 0x000000FF)
T7C58 001:400.538 - 0.006ms returns 0
T7C58 001:400.545 JLINK_WriteReg(R3, 0x00000000)
T7C58 001:400.551 - 0.006ms returns 0
T7C58 001:400.559 JLINK_WriteReg(R4, 0x00000000)
T7C58 001:400.565 - 0.006ms returns 0
T7C58 001:400.572 JLINK_WriteReg(R5, 0x00000000)
T7C58 001:400.578 - 0.006ms returns 0
T7C58 001:400.586 JLINK_WriteReg(R6, 0x00000000)
T7C58 001:400.592 - 0.006ms returns 0
T7C58 001:400.599 JLINK_WriteReg(R7, 0x00000000)
T7C58 001:400.606 - 0.006ms returns 0
T7C58 001:400.613 JLINK_WriteReg(R8, 0x00000000)
T7C58 001:400.619 - 0.006ms returns 0
T7C58 001:400.627 JLINK_WriteReg(R9, 0x20000640)
T7C58 001:400.638 - 0.011ms returns 0
T7C58 001:400.646 JLINK_WriteReg(R10, 0x00000000)
T7C58 001:400.653 - 0.006ms returns 0
T7C58 001:400.660 JLINK_WriteReg(R11, 0x00000000)
T7C58 001:400.666 - 0.006ms returns 0
T7C58 001:400.674 JLINK_WriteReg(R12, 0x00000000)
T7C58 001:400.680 - 0.006ms returns 0
T7C58 001:400.687 JLINK_WriteReg(R13 (SP), 0x20008000)
T7C58 001:400.694 - 0.007ms returns 0
T7C58 001:400.702 JLINK_WriteReg(R14, 0x20000001)
T7C58 001:400.708 - 0.006ms returns 0
T7C58 001:400.716 JLINK_WriteReg(R15 (PC), 0x20000020)
T7C58 001:400.722 - 0.006ms returns 0
T7C58 001:400.730 JLINK_WriteReg(XPSR, 0x01000000)
T7C58 001:400.736 - 0.006ms returns 0
T7C58 001:400.744 JLINK_WriteReg(MSP, 0x20008000)
T7C58 001:400.750 - 0.006ms returns 0
T7C58 001:400.757 JLINK_WriteReg(PSP, 0x20008000)
T7C58 001:400.764 - 0.006ms returns 0
T7C58 001:400.771 JLINK_WriteReg(CFBP, 0x00000000)
T7C58 001:400.777 - 0.006ms returns 0
T7C58 001:400.785 JLINK_SetBPEx(Addr = 0x20000000, Type = 0xFFFFFFF2)
T7C58 001:400.792 - 0.007ms returns 0x00000008
T7C58 001:400.799 JLINK_Go()
T7C58 001:400.809   CPU_WriteMem(4 bytes @ 0xE0002000)
T7C58 001:401.708   CPU_ReadMem(4 bytes @ 0xE0001000)
T7C58 001:410.446 - 9.646ms 
T7C58 001:410.468 JLINK_IsHalted()
T7C58 001:419.595 - 9.126ms returns TRUE
T7C58 001:419.617 JLINK_ReadReg(R15 (PC))
T7C58 001:419.627   CPU_ReadMem(4 bytes @ 0xE000EE08)
T7C58 001:420.746 - 1.128ms returns 0x20000000
T7C58 001:420.767 JLINK_ClrBPEx(BPHandle = 0x00000008)
T7C58 001:420.775 - 0.007ms returns 0x00
T7C58 001:420.783 JLINK_ReadReg(R0)
T7C58 001:420.791 - 0.007ms returns 0x00000001
T7C58 001:420.897 JLINK_HasError()
T7C58 001:420.939 JLINK_WriteReg(R0, 0x08006000)
T7C58 001:420.964 - 0.024ms returns 0
T7C58 001:420.985 JLINK_WriteReg(R1, 0x00002000)
T7C58 001:421.002 - 0.017ms returns 0
T7C58 001:421.022 JLINK_WriteReg(R2, 0x000000FF)
T7C58 001:421.055 - 0.032ms returns 0
T7C58 001:421.075 JLINK_WriteReg(R3, 0x00000000)
T7C58 001:421.092 - 0.017ms returns 0
T7C58 001:421.118 JLINK_WriteReg(R4, 0x00000000)
T7C58 001:421.153 - 0.035ms returns 0
T7C58 001:421.173 JLINK_WriteReg(R5, 0x00000000)
T7C58 001:421.190 - 0.017ms returns 0
T7C58 001:421.210 JLINK_WriteReg(R6, 0x00000000)
T7C58 001:421.227 - 0.016ms returns 0
T7C58 001:421.246 JLINK_WriteReg(R7, 0x00000000)
T7C58 001:421.263 - 0.016ms returns 0
T7C58 001:421.282 JLINK_WriteReg(R8, 0x00000000)
T7C58 001:421.299 - 0.016ms returns 0
T7C58 001:421.318 JLINK_WriteReg(R9, 0x20000640)
T7C58 001:421.335 - 0.017ms returns 0
T7C58 001:421.355 JLINK_WriteReg(R10, 0x00000000)
T7C58 001:421.372 - 0.017ms returns 0
T7C58 001:421.391 JLINK_WriteReg(R11, 0x00000000)
T7C58 001:421.408 - 0.016ms returns 0
T7C58 001:421.427 JLINK_WriteReg(R12, 0x00000000)
T7C58 001:421.444 - 0.016ms returns 0
T7C58 001:421.464 JLINK_WriteReg(R13 (SP), 0x20008000)
T7C58 001:421.483 - 0.019ms returns 0
T7C58 001:421.503 JLINK_WriteReg(R14, 0x20000001)
T7C58 001:421.520 - 0.017ms returns 0
T7C58 001:421.540 JLINK_WriteReg(R15 (PC), 0x20000294)
T7C58 001:421.557 - 0.017ms returns 0
T7C58 001:421.576 JLINK_WriteReg(XPSR, 0x01000000)
T7C58 001:421.593 - 0.017ms returns 0
T7C58 001:421.613 JLINK_WriteReg(MSP, 0x20008000)
T7C58 001:421.630 - 0.017ms returns 0
T7C58 001:421.650 JLINK_WriteReg(PSP, 0x20008000)
T7C58 001:421.667 - 0.017ms returns 0
T7C58 001:421.686 JLINK_WriteReg(CFBP, 0x00000000)
T7C58 001:421.703 - 0.017ms returns 0
T7C58 001:421.724 JLINK_SetBPEx(Addr = 0x20000000, Type = 0xFFFFFFF2)
T7C58 001:421.742 - 0.018ms returns 0x00000009
T7C58 001:421.761 JLINK_Go()
T7C58 001:421.785   CPU_WriteMem(4 bytes @ 0xE0002000)
T7C58 001:422.864   CPU_ReadMem(4 bytes @ 0xE0001000)
T7C58 001:431.453 - 9.691ms 
T7C58 001:431.470 JLINK_IsHalted()
T7C58 001:432.444 - 0.973ms returns FALSE
T7C58 001:432.460 JLINK_HasError()
T7C58 001:434.279 JLINK_IsHalted()
T7C58 001:443.472 - 9.192ms returns TRUE
T7C58 001:443.490 JLINK_ReadReg(R15 (PC))
T7C58 001:443.499   CPU_ReadMem(4 bytes @ 0xE000EE08)
T7C58 001:444.321 - 0.830ms returns 0x20000000
T7C58 001:444.337 JLINK_ClrBPEx(BPHandle = 0x00000009)
T7C58 001:444.344 - 0.007ms returns 0x00
T7C58 001:444.352 JLINK_ReadReg(R0)
T7C58 001:444.360 - 0.007ms returns 0x00000000
T7C58 001:445.142 JLINK_HasError()
T7C58 001:445.181 JLINK_WriteReg(R0, 0x08008000)
T7C58 001:445.205 - 0.023ms returns 0
T7C58 001:445.225 JLINK_WriteReg(R1, 0x00002000)
T7C58 001:445.242 - 0.017ms returns 0
T7C58 001:445.262 JLINK_WriteReg(R2, 0x000000FF)
T7C58 001:445.278 - 0.016ms returns 0
T7C58 001:445.298 JLINK_WriteReg(R3, 0x00000000)
T7C58 001:445.315 - 0.016ms returns 0
T7C58 001:445.334 JLINK_WriteReg(R4, 0x00000000)
T7C58 001:445.351 - 0.016ms returns 0
T7C58 001:445.370 JLINK_WriteReg(R5, 0x00000000)
T7C58 001:445.387 - 0.016ms returns 0
T7C58 001:445.411 JLINK_WriteReg(R6, 0x00000000)
T7C58 001:445.450 - 0.038ms returns 0
T7C58 001:445.556 JLINK_WriteReg(R7, 0x00000000)
T7C58 001:445.576 - 0.020ms returns 0
T7C58 001:445.585 JLINK_WriteReg(R8, 0x00000000)
T7C58 001:445.592 - 0.006ms returns 0
T7C58 001:445.599 JLINK_WriteReg(R9, 0x20000640)
T7C58 001:445.606 - 0.006ms returns 0
T7C58 001:445.613 JLINK_WriteReg(R10, 0x00000000)
T7C58 001:445.620 - 0.006ms returns 0
T7C58 001:445.627 JLINK_WriteReg(R11, 0x00000000)
T7C58 001:445.633 - 0.006ms returns 0
T7C58 001:445.641 JLINK_WriteReg(R12, 0x00000000)
T7C58 001:445.647 - 0.006ms returns 0
T7C58 001:445.654 JLINK_WriteReg(R13 (SP), 0x20008000)
T7C58 001:445.662 - 0.007ms returns 0
T7C58 001:445.669 JLINK_WriteReg(R14, 0x20000001)
T7C58 001:445.676 - 0.006ms returns 0
T7C58 001:445.683 JLINK_WriteReg(R15 (PC), 0x20000020)
T7C58 001:445.690 - 0.006ms returns 0
T7C58 001:445.697 JLINK_WriteReg(XPSR, 0x01000000)
T7C58 001:445.703 - 0.006ms returns 0
T7C58 001:445.711 JLINK_WriteReg(MSP, 0x20008000)
T7C58 001:445.717 - 0.006ms returns 0
T7C58 001:445.725 JLINK_WriteReg(PSP, 0x20008000)
T7C58 001:445.738 - 0.013ms returns 0
T7C58 001:445.746 JLINK_WriteReg(CFBP, 0x00000000)
T7C58 001:445.753 - 0.006ms returns 0
T7C58 001:445.761 JLINK_SetBPEx(Addr = 0x20000000, Type = 0xFFFFFFF2)
T7C58 001:445.768 - 0.007ms returns 0x0000000A
T7C58 001:445.775 JLINK_Go()
T7C58 001:445.784   CPU_WriteMem(4 bytes @ 0xE0002000)
T7C58 001:446.888   CPU_ReadMem(4 bytes @ 0xE0001000)
T7C58 001:455.704 - 9.928ms 
T7C58 001:455.721 JLINK_IsHalted()
T7C58 001:464.841 - 9.119ms returns TRUE
T7C58 001:464.858 JLINK_ReadReg(R15 (PC))
T7C58 001:464.866   CPU_ReadMem(4 bytes @ 0xE000EE08)
T7C58 001:465.829 - 0.970ms returns 0x20000000
T7C58 001:465.845 JLINK_ClrBPEx(BPHandle = 0x0000000A)
T7C58 001:465.852 - 0.007ms returns 0x00
T7C58 001:465.860 JLINK_ReadReg(R0)
T7C58 001:465.867 - 0.007ms returns 0x00000001
T7C58 001:465.875 JLINK_HasError()
T7C58 001:465.883 JLINK_WriteReg(R0, 0x08008000)
T7C58 001:465.890 - 0.007ms returns 0
T7C58 001:465.898 JLINK_WriteReg(R1, 0x00002000)
T7C58 001:465.904 - 0.006ms returns 0
T7C58 001:465.912 JLINK_WriteReg(R2, 0x000000FF)
T7C58 001:465.918 - 0.006ms returns 0
T7C58 001:465.925 JLINK_WriteReg(R3, 0x00000000)
T7C58 001:465.932 - 0.006ms returns 0
T7C58 001:465.939 JLINK_WriteReg(R4, 0x00000000)
T7C58 001:465.945 - 0.006ms returns 0
T7C58 001:465.953 JLINK_WriteReg(R5, 0x00000000)
T7C58 001:465.959 - 0.006ms returns 0
T7C58 001:465.967 JLINK_WriteReg(R6, 0x00000000)
T7C58 001:465.973 - 0.006ms returns 0
T7C58 001:465.980 JLINK_WriteReg(R7, 0x00000000)
T7C58 001:465.987 - 0.006ms returns 0
T7C58 001:465.994 JLINK_WriteReg(R8, 0x00000000)
T7C58 001:466.000 - 0.006ms returns 0
T7C58 001:466.008 JLINK_WriteReg(R9, 0x20000640)
T7C58 001:466.014 - 0.006ms returns 0
T7C58 001:466.022 JLINK_WriteReg(R10, 0x00000000)
T7C58 001:466.028 - 0.006ms returns 0
T7C58 001:466.035 JLINK_WriteReg(R11, 0x00000000)
T7C58 001:466.042 - 0.006ms returns 0
T7C58 001:466.049 JLINK_WriteReg(R12, 0x00000000)
T7C58 001:466.055 - 0.006ms returns 0
T7C58 001:466.063 JLINK_WriteReg(R13 (SP), 0x20008000)
T7C58 001:466.070 - 0.007ms returns 0
T7C58 001:466.077 JLINK_WriteReg(R14, 0x20000001)
T7C58 001:466.084 - 0.006ms returns 0
T7C58 001:466.091 JLINK_WriteReg(R15 (PC), 0x20000294)
T7C58 001:466.098 - 0.006ms returns 0
T7C58 001:466.105 JLINK_WriteReg(XPSR, 0x01000000)
T7C58 001:466.112 - 0.006ms returns 0
T7C58 001:466.119 JLINK_WriteReg(MSP, 0x20008000)
T7C58 001:466.125 - 0.006ms returns 0
T7C58 001:466.133 JLINK_WriteReg(PSP, 0x20008000)
T7C58 001:466.139 - 0.006ms returns 0
T7C58 001:466.147 JLINK_WriteReg(CFBP, 0x00000000)
T7C58 001:466.153 - 0.006ms returns 0
T7C58 001:466.161 JLINK_SetBPEx(Addr = 0x20000000, Type = 0xFFFFFFF2)
T7C58 001:466.168 - 0.007ms returns 0x0000000B
T7C58 001:466.175 JLINK_Go()
T7C58 001:466.184   CPU_WriteMem(4 bytes @ 0xE0002000)
T7C58 001:467.253   CPU_ReadMem(4 bytes @ 0xE0001000)
T7C58 001:476.079 - 9.903ms 
T7C58 001:476.103 JLINK_IsHalted()
T7C58 001:477.070 - 0.966ms returns FALSE
T7C58 001:477.090 JLINK_HasError()
T7C58 001:480.964 JLINK_IsHalted()
T7C58 001:490.224 - 9.258ms returns TRUE
T7C58 001:490.242 JLINK_ReadReg(R15 (PC))
T7C58 001:490.252   CPU_ReadMem(4 bytes @ 0xE000EE08)
T7C58 001:491.213 - 0.970ms returns 0x20000000
T7C58 001:491.230 JLINK_ClrBPEx(BPHandle = 0x0000000B)
T7C58 001:491.237 - 0.007ms returns 0x00
T7C58 001:491.245 JLINK_ReadReg(R0)
T7C58 001:491.253 - 0.007ms returns 0x00000000
T7C58 001:491.951 JLINK_HasError()
T7C58 001:491.968 JLINK_WriteReg(R0, 0x0800A000)
T7C58 001:491.978 - 0.010ms returns 0
T7C58 001:491.986 JLINK_WriteReg(R1, 0x00002000)
T7C58 001:491.993 - 0.006ms returns 0
T7C58 001:492.000 JLINK_WriteReg(R2, 0x000000FF)
T7C58 001:492.007 - 0.006ms returns 0
T7C58 001:492.014 JLINK_WriteReg(R3, 0x00000000)
T7C58 001:492.021 - 0.006ms returns 0
T7C58 001:492.028 JLINK_WriteReg(R4, 0x00000000)
T7C58 001:492.034 - 0.006ms returns 0
T7C58 001:492.042 JLINK_WriteReg(R5, 0x00000000)
T7C58 001:492.048 - 0.006ms returns 0
T7C58 001:492.055 JLINK_WriteReg(R6, 0x00000000)
T7C58 001:492.071 - 0.015ms returns 0
T7C58 001:492.078 JLINK_WriteReg(R7, 0x00000000)
T7C58 001:492.085 - 0.006ms returns 0
T7C58 001:492.092 JLINK_WriteReg(R8, 0x00000000)
T7C58 001:492.099 - 0.006ms returns 0
T7C58 001:492.106 JLINK_WriteReg(R9, 0x20000640)
T7C58 001:492.112 - 0.006ms returns 0
T7C58 001:492.120 JLINK_WriteReg(R10, 0x00000000)
T7C58 001:492.126 - 0.006ms returns 0
T7C58 001:492.133 JLINK_WriteReg(R11, 0x00000000)
T7C58 001:492.140 - 0.006ms returns 0
T7C58 001:492.147 JLINK_WriteReg(R12, 0x00000000)
T7C58 001:492.154 - 0.006ms returns 0
T7C58 001:492.161 JLINK_WriteReg(R13 (SP), 0x20008000)
T7C58 001:492.168 - 0.007ms returns 0
T7C58 001:492.176 JLINK_WriteReg(R14, 0x20000001)
T7C58 001:492.182 - 0.006ms returns 0
T7C58 001:492.190 JLINK_WriteReg(R15 (PC), 0x20000020)
T7C58 001:492.196 - 0.006ms returns 0
T7C58 001:492.204 JLINK_WriteReg(XPSR, 0x01000000)
T7C58 001:492.210 - 0.006ms returns 0
T7C58 001:492.217 JLINK_WriteReg(MSP, 0x20008000)
T7C58 001:492.224 - 0.006ms returns 0
T7C58 001:492.231 JLINK_WriteReg(PSP, 0x20008000)
T7C58 001:492.238 - 0.006ms returns 0
T7C58 001:492.245 JLINK_WriteReg(CFBP, 0x00000000)
T7C58 001:492.251 - 0.006ms returns 0
T7C58 001:492.259 JLINK_SetBPEx(Addr = 0x20000000, Type = 0xFFFFFFF2)
T7C58 001:492.266 - 0.007ms returns 0x0000000C
T7C58 001:492.273 JLINK_Go()
T7C58 001:492.283   CPU_WriteMem(4 bytes @ 0xE0002000)
T7C58 001:493.212   CPU_ReadMem(4 bytes @ 0xE0001000)
T7C58 001:502.078 - 9.803ms 
T7C58 001:502.096 JLINK_IsHalted()
T7C58 001:511.474 - 9.377ms returns TRUE
T7C58 001:511.496 JLINK_ReadReg(R15 (PC))
T7C58 001:511.505   CPU_ReadMem(4 bytes @ 0xE000EE08)
T7C58 001:512.460 - 0.963ms returns 0x20000000
T7C58 001:512.481 JLINK_ClrBPEx(BPHandle = 0x0000000C)
T7C58 001:512.488 - 0.007ms returns 0x00
T7C58 001:512.496 JLINK_ReadReg(R0)
T7C58 001:512.504 - 0.007ms returns 0x00000001
T7C58 001:513.235 JLINK_HasError()
T7C58 001:513.252 JLINK_WriteReg(R0, 0x0800A000)
T7C58 001:513.261 - 0.009ms returns 0
T7C58 001:513.269 JLINK_WriteReg(R1, 0x00002000)
T7C58 001:513.276 - 0.006ms returns 0
T7C58 001:513.283 JLINK_WriteReg(R2, 0x000000FF)
T7C58 001:513.290 - 0.006ms returns 0
T7C58 001:513.297 JLINK_WriteReg(R3, 0x00000000)
T7C58 001:513.303 - 0.006ms returns 0
T7C58 001:513.311 JLINK_WriteReg(R4, 0x00000000)
T7C58 001:513.317 - 0.006ms returns 0
T7C58 001:513.328 JLINK_WriteReg(R5, 0x00000000)
T7C58 001:513.335 - 0.011ms returns 0
T7C58 001:513.343 JLINK_WriteReg(R6, 0x00000000)
T7C58 001:513.349 - 0.006ms returns 0
T7C58 001:513.357 JLINK_WriteReg(R7, 0x00000000)
T7C58 001:513.365 - 0.008ms returns 0
T7C58 001:513.373 JLINK_WriteReg(R8, 0x00000000)
T7C58 001:513.379 - 0.006ms returns 0
T7C58 001:513.386 JLINK_WriteReg(R9, 0x20000640)
T7C58 001:513.393 - 0.006ms returns 0
T7C58 001:513.400 JLINK_WriteReg(R10, 0x00000000)
T7C58 001:513.407 - 0.006ms returns 0
T7C58 001:513.414 JLINK_WriteReg(R11, 0x00000000)
T7C58 001:513.420 - 0.006ms returns 0
T7C58 001:513.428 JLINK_WriteReg(R12, 0x00000000)
T7C58 001:513.434 - 0.006ms returns 0
T7C58 001:513.441 JLINK_WriteReg(R13 (SP), 0x20008000)
T7C58 001:513.449 - 0.007ms returns 0
T7C58 001:513.456 JLINK_WriteReg(R14, 0x20000001)
T7C58 001:513.463 - 0.006ms returns 0
T7C58 001:513.473 JLINK_WriteReg(R15 (PC), 0x20000294)
T7C58 001:513.479 - 0.006ms returns 0
T7C58 001:513.487 JLINK_WriteReg(XPSR, 0x01000000)
T7C58 001:513.493 - 0.006ms returns 0
T7C58 001:513.501 JLINK_WriteReg(MSP, 0x20008000)
T7C58 001:513.507 - 0.006ms returns 0
T7C58 001:513.514 JLINK_WriteReg(PSP, 0x20008000)
T7C58 001:513.521 - 0.006ms returns 0
T7C58 001:513.528 JLINK_WriteReg(CFBP, 0x00000000)
T7C58 001:513.534 - 0.006ms returns 0
T7C58 001:513.542 JLINK_SetBPEx(Addr = 0x20000000, Type = 0xFFFFFFF2)
T7C58 001:513.549 - 0.007ms returns 0x0000000D
T7C58 001:513.557 JLINK_Go()
T7C58 001:513.566   CPU_WriteMem(4 bytes @ 0xE0002000)
T7C58 001:514.495   CPU_ReadMem(4 bytes @ 0xE0001000)
T7C58 001:523.221 - 9.662ms 
T7C58 001:523.264 JLINK_IsHalted()
T7C58 001:524.334 - 1.069ms returns FALSE
T7C58 001:524.355 JLINK_HasError()
T7C58 001:526.411 JLINK_IsHalted()
T7C58 001:535.593 - 9.182ms returns TRUE
T7C58 001:535.611 JLINK_ReadReg(R15 (PC))
T7C58 001:535.620   CPU_ReadMem(4 bytes @ 0xE000EE08)
T7C58 001:536.464 - 0.852ms returns 0x20000000
T7C58 001:536.481 JLINK_ClrBPEx(BPHandle = 0x0000000D)
T7C58 001:536.488 - 0.007ms returns 0x00
T7C58 001:536.496 JLINK_ReadReg(R0)
T7C58 001:536.503 - 0.007ms returns 0x00000000
T7C58 001:537.143 JLINK_HasError()
T7C58 001:537.160 JLINK_WriteReg(R0, 0x0800C000)
T7C58 001:537.170 - 0.009ms returns 0
T7C58 001:537.178 JLINK_WriteReg(R1, 0x00002000)
T7C58 001:537.185 - 0.006ms returns 0
T7C58 001:537.192 JLINK_WriteReg(R2, 0x000000FF)
T7C58 001:537.199 - 0.006ms returns 0
T7C58 001:537.206 JLINK_WriteReg(R3, 0x00000000)
T7C58 001:537.213 - 0.006ms returns 0
T7C58 001:537.220 JLINK_WriteReg(R4, 0x00000000)
T7C58 001:537.226 - 0.006ms returns 0
T7C58 001:537.234 JLINK_WriteReg(R5, 0x00000000)
T7C58 001:537.240 - 0.006ms returns 0
T7C58 001:537.247 JLINK_WriteReg(R6, 0x00000000)
T7C58 001:537.254 - 0.006ms returns 0
T7C58 001:537.261 JLINK_WriteReg(R7, 0x00000000)
T7C58 001:537.267 - 0.006ms returns 0
T7C58 001:537.275 JLINK_WriteReg(R8, 0x00000000)
T7C58 001:537.281 - 0.006ms returns 0
T7C58 001:537.289 JLINK_WriteReg(R9, 0x20000640)
T7C58 001:537.295 - 0.006ms returns 0
T7C58 001:537.302 JLINK_WriteReg(R10, 0x00000000)
T7C58 001:537.309 - 0.006ms returns 0
T7C58 001:537.316 JLINK_WriteReg(R11, 0x00000000)
T7C58 001:537.322 - 0.006ms returns 0
T7C58 001:537.330 JLINK_WriteReg(R12, 0x00000000)
T7C58 001:537.336 - 0.006ms returns 0
T7C58 001:537.344 JLINK_WriteReg(R13 (SP), 0x20008000)
T7C58 001:537.351 - 0.007ms returns 0
T7C58 001:537.358 JLINK_WriteReg(R14, 0x20000001)
T7C58 001:537.365 - 0.006ms returns 0
